
T17BC 000:107 SEGGER J-Link V4.72a Log File (0002ms, 0106ms total)
T17BC 000:107 DLL Compiled: Jun 26 2013 11:49:14 (0002ms, 0106ms total)
T17BC 000:107 Logging started @ 2018-04-03 20:48 (0002ms, 0106ms total)
T17BC 000:109 JLINK_SetWarnOutHandler(...) (0000ms, 0106ms total)
T17BC 000:109 JLINK_OpenEx(...)
Firmware: J-Link ARM V8 compiled Nov 28 2014 13:44:46
Hardware: V8.00
S/N: 304439649
Feature(s): RDI,FlashDL,FlashBP,JFlash,GDBFULL  returns O.K. (0030ms, 0136ms total)
T17BC 000:139 JLINK_SetErrorOutHandler(...) (0000ms, 0136ms total)
T17BC 000:139 JLINK_ExecCommand("ProjectFile = "E:\Guard\MDK-ARM\JLinkSettings.ini"", ...)
                JLINK_AddMirrorAreaEx(Addr = 0x00000000, Size = 0x00000000) (0000ms, 0000ms total)
              Device "UNSPECIFIED" selected (0 KB flash, 0 KB RAM).  returns 0x00 (0010ms, 0146ms total)
T17BC 000:164 JLINK_ExecCommand("Device = STM32F427IIHx", ...)
                JLINK_AddMirrorAreaEx(Addr = 0x00000000, Size = 0x00000000) (0000ms, 0000ms total)
              Device "UNSPECIFIED" selected (0 KB flash, 0 KB RAM).  returns 0x00 (0006ms, 0152ms total)
T17BC 000:170 JLINK_ExecCommand("DisableConnectionTimeout", ...)  returns 0x00 (0000ms, 0152ms total)
T17BC 000:170 JLINK_GetHardwareVersion()  returns 0x13880 (0000ms, 0152ms total)
T17BC 000:170 JLINK_GetDLLVersion()  returns 47201 (0000ms, 0152ms total)
T17BC 000:170 JLINK_GetFirmwareString(...) (0000ms, 0152ms total)
T17BC 000:188 JLINK_GetDLLVersion()  returns 47201 (0000ms, 0152ms total)
T17BC 000:189 JLINK_GetCompileDateTime() (0000ms, 0153ms total)
T17BC 000:195 JLINK_GetFirmwareString(...) (0000ms, 0153ms total)
T17BC 000:202 JLINK_GetHardwareVersion()  returns 0x13880 (0000ms, 0153ms total)
T17BC 000:220 JLINK_TIF_Select(JLINKARM_TIF_SWD)  returns 0x00 (0005ms, 0158ms total)
T17BC 000:225 JLINK_SetSpeed(20000) (0001ms, 0159ms total)
T17BC 000:226 JLINK_GetId() >0x108 TIF>Found SWD-DP with ID 0x2BA01477 >0x0D TIF> >0x21 TIF> >0x0D TIF> >0x28 TIF> >0x0D TIF> >0x28 TIF> >0x0D TIF> >0x21 TIF> >0x0D TIF> >0x21 TIF> >0x0D TIF> >0x28 TIF> >0x0D TIF> >0x21 TIF> >0x0D TIF> >0x21 TIF> >0x0D TIF> >0x21 TIF> >0x0D TIF> >0x21 TIF> >0x0D TIF> >0x21 TIF> >0x0D TIF> >0x28 TIF> >0x0D TIF> >0x28 TIF> >0x0D TIF> >0x21 TIF> >0x0D TIF> >0x21 TIF> >0x0D TIF> >0x28 TIF> >0x0D TIF> >0x21 TIF> >0x0D TIF> >0x21 TIF> >0x0D TIF> >0x28 TIF> >0x0D TIF>
 >0x28 TIF> >0x0D TIF> >0x28 TIF> >0x0D TIF> >0x21 TIF> >0x0D TIF> >0x21 TIF> >0x0D TIF> >0x28 TIF> >0x0D TIF> >0x28 TIF> >0x0D TIF> >0x28 TIF> >0x0D TIF> >0x21 TIF> >0x0D TIF> >0x21 TIF> >0x0D TIF> >0x21 TIF>TPIU fitted.ETM fitted. >0x0D TIF> >0x28 TIF> >0x0D TIF> >0x21 TIF> >0x0D TIF> >0x21 TIF> >0x0D TIF> >0x28 TIF> >0x0D TIF> >0x21 TIF> >0x0D TIF> >0x21 TIF>FPUnit: 6 code (BP) slots and 2 literal slots >0x0D TIF> >0x28 TIF> >0x0D TIF> >0x21 TIF> >0x0D TIF> >0x21 TIF> >0x0D TIF> >0x28 TIF> >0x0D TIF>
 >0x21 TIF> >0x0D TIF> >0x21 TIF> >0x0D TIF> >0x28 TIF> >0x0D TIF> >0x21 TIF> >0x0D TIF> >0x21 TIF> >0x0D TIF> >0x28 TIF> >0x0D TIF> >0x21 TIF> >0x0D TIF> >0x21 TIF>Found Cortex-M4 r0p1, Little endian. >0x0D TIF> >0x21 TIF>  returns 0x2BA01477 (0128ms, 0287ms total)
T17BC 000:354 JLINK_GetDLLVersion()  returns 47201 (0000ms, 0287ms total)
T17BC 000:354 JLINK_CORE_GetFound()  returns 0xE0000FF (0000ms, 0287ms total)
T17BC 000:359 JLINK_ReadMem (0xE00FF000, 0x0020 Bytes, ...) -- CPU is running -- CPU_ReadMem(32 bytes @ 0xE00FF000) -- Data:  03 F0 F0 FF 03 20 F0 FF 03 30 F0 FF 03 10 F0 FF ...  returns 0x00 (0001ms, 0288ms total)
T17BC 000:360 JLINK_ReadMem (0xE000EFF0, 0x0010 Bytes, ...) -- CPU is running -- CPU_ReadMem(16 bytes @ 0xE000EFF0) -- Data:  0D 00 00 00 E0 00 00 00 05 00 00 00 B1 00 00 00  returns 0x00 (0002ms, 0290ms total)
T17BC 000:362 JLINK_ReadMem (0xE000EFD0, 0x0020 Bytes, ...) -- CPU is running -- CPU_ReadMem(32 bytes @ 0xE000EFD0) -- Data:  04 00 00 00 00 00 00 00 00 00 00 00 00 00 00 00 ...  returns 0x00 (0002ms, 0292ms total)
T17BC 000:364 JLINK_ReadMem (0xE0001FF0, 0x0010 Bytes, ...) -- CPU is running -- CPU_ReadMem(16 bytes @ 0xE0001FF0) -- Data:  0D 00 00 00 E0 00 00 00 05 00 00 00 B1 00 00 00  returns 0x00 (0001ms, 0293ms total)
T17BC 000:365 JLINK_ReadMem (0xE0001FD0, 0x0020 Bytes, ...) -- CPU is running -- CPU_ReadMem(32 bytes @ 0xE0001FD0) -- Data:  04 00 00 00 00 00 00 00 00 00 00 00 00 00 00 00 ...  returns 0x00 (0002ms, 0295ms total)
T17BC 000:367 JLINK_ReadMem (0xE0002FF0, 0x0010 Bytes, ...) -- CPU is running -- CPU_ReadMem(16 bytes @ 0xE0002FF0) -- Data:  0D 00 00 00 E0 00 00 00 05 00 00 00 B1 00 00 00  returns 0x00 (0000ms, 0295ms total)
T17BC 000:367 JLINK_ReadMem (0xE0002FD0, 0x0020 Bytes, ...) -- CPU is running -- CPU_ReadMem(32 bytes @ 0xE0002FD0) -- Data:  04 00 00 00 00 00 00 00 00 00 00 00 00 00 00 00 ...  returns 0x00 (0002ms, 0297ms total)
T17BC 000:369 JLINK_ReadMem (0xE0000FF0, 0x0010 Bytes, ...) -- CPU is running -- CPU_ReadMem(16 bytes @ 0xE0000FF0) -- Data:  0D 00 00 00 E0 00 00 00 05 00 00 00 B1 00 00 00  returns 0x00 (0000ms, 0297ms total)
T17BC 000:370 JLINK_ReadMem (0xE0000FD0, 0x0020 Bytes, ...) -- CPU is running -- CPU_ReadMem(32 bytes @ 0xE0000FD0) -- Data:  04 00 00 00 00 00 00 00 00 00 00 00 00 00 00 00 ...  returns 0x00 (0001ms, 0298ms total)
T17BC 000:371 JLINK_ReadMem (0xE0040FF0, 0x0010 Bytes, ...) -- CPU is running -- CPU_ReadMem(16 bytes @ 0xE0040FF0) -- Data:  0D 00 00 00 90 00 00 00 05 00 00 00 B1 00 00 00  returns 0x00 (0000ms, 0298ms total)
T17BC 000:372 JLINK_ReadMem (0xE0040FD0, 0x0020 Bytes, ...) -- CPU is running -- CPU_ReadMem(32 bytes @ 0xE0040FD0) -- Data:  04 00 00 00 00 00 00 00 00 00 00 00 00 00 00 00 ...  returns 0x00 (0002ms, 0301ms total)
T17BC 000:374 JLINK_ReadMem (0xE0041FF0, 0x0010 Bytes, ...) -- CPU is running -- CPU_ReadMem(16 bytes @ 0xE0041FF0) -- Data:  0D 00 00 00 90 00 00 00 05 00 00 00 B1 00 00 00  returns 0x00 (0000ms, 0301ms total)
T17BC 000:374 JLINK_ReadMem (0xE0041FD0, 0x0020 Bytes, ...) -- CPU is running -- CPU_ReadMem(32 bytes @ 0xE0041FD0) -- Data:  04 00 00 00 00 00 00 00 00 00 00 00 00 00 00 00 ...  returns 0x00 (0002ms, 0303ms total)
T17BC 000:377 JLINK_ReadMemU32(0xE000EF40, 0x0001 Items, ...) -- CPU is running -- CPU_ReadMem(4 bytes @ 0xE000EF40) -- Data:  21 00 11 10  returns 0x01 (0000ms, 0303ms total)
T17BC 000:377 JLINK_ReadMemU32(0xE000EF44, 0x0001 Items, ...) -- CPU is running -- CPU_ReadMem(4 bytes @ 0xE000EF44) -- Data:  11 00 00 11  returns 0x01 (0001ms, 0304ms total)
T17BC 000:379 JLINK_ReadMemU32(0xE000ED00, 0x0001 Items, ...) -- CPU is running -- CPU_ReadMem(4 bytes @ 0xE000ED00) -- Data:  41 C2 0F 41  returns 0x01 (0001ms, 0305ms total)
T17BC 000:380 JLINK_SetResetType(JLINKARM_RESET_TYPE_NORMAL)  returns JLINKARM_RESET_TYPE_NORMAL (0000ms, 0305ms total)
T17BC 000:380 JLINK_Reset() -- CPU is running -- CPU_WriteMem(4 bytes @ 0xE000EDF0) -- CPU is running -- CPU_WriteMem(4 bytes @ 0xE000EDFC) >0x35 TIF> -- CPU is running -- CPU_WriteMem(4 bytes @ 0xE000ED0C) -- CPU is running -- CPU_ReadMem(4 bytes @ 0xE000EDF0) -- CPU is running -- CPU_ReadMem(4 bytes @ 0xE000EDF0) -- CPU is running -- CPU_WriteMem(4 bytes @ 0xE000EDF0) -- CPU is running -- CPU_WriteMem(4 bytes @ 0xE000EDFC) -- CPU is running -- CPU_ReadMem(4 bytes @ 0xE000EDF0)
 -- CPU_WriteMem(4 bytes @ 0xE0002000) (0022ms, 0327ms total)
T17BC 000:402 JLINK_Halt()  returns 0x00 (0000ms, 0327ms total)
T17BC 000:402 JLINK_IsHalted()  returns TRUE (0000ms, 0327ms total)
T17BC 000:402 JLINK_ReadMemU32(0xE000EDF0, 0x0001 Items, ...) -- CPU_ReadMem(4 bytes @ 0xE000EDF0) -- Data:  03 00 03 00  returns 0x01 (0001ms, 0328ms total)
T17BC 000:403 JLINK_WriteU32(0xE000EDF0, 0xA05F0003) -- CPU_WriteMem(4 bytes @ 0xE000EDF0)  returns 0x00 (0001ms, 0329ms total)
T17BC 000:404 JLINK_WriteU32(0xE000EDFC, 0x01000000) -- CPU_WriteMem(4 bytes @ 0xE000EDFC)  returns 0x00 (0001ms, 0330ms total)
T17BC 000:430 JLINK_GetHWStatus(...)  returns 0x00 (0000ms, 0330ms total)
T17BC 000:447 JLINK_GetNumBPUnits(Type = 0xFFFFFF00)  returns 0x06 (0000ms, 0330ms total)
T17BC 000:447 JLINK_GetNumBPUnits(Type = 0xF0)  returns 0x2000 (0000ms, 0330ms total)
T17BC 000:447 JLINK_GetNumWPUnits()  returns 0x04 (0000ms, 0330ms total)
T17BC 000:464 JLINK_GetSpeed()  returns 0xFA0 (0000ms, 0330ms total)
T17BC 000:474 JLINK_ReadMemU32(0xE000E004, 0x0001 Items, ...) -- CPU_ReadMem(4 bytes @ 0xE000E004) -- Data:  02 00 00 00  returns 0x01 (0002ms, 0332ms total)
T17BC 000:476 JLINK_ReadMemU32(0xE000E004, 0x0001 Items, ...) -- CPU_ReadMem(4 bytes @ 0xE000E004) -- Data:  02 00 00 00  returns 0x01 (0001ms, 0333ms total)
T17BC 000:477 JLINK_WriteMem(0xE0001000, 0x001C Bytes, ...) -- Data:  01 00 00 00 00 00 00 00 00 00 00 00 00 00 00 00 ... -- CPU_WriteMem(28 bytes @ 0xE0001000)  returns 0x1C (0001ms, 0334ms total)
T17BC 000:478 JLINK_ReadMem (0xE0001000, 0x001C Bytes, ...) -- CPU_ReadMem(28 bytes @ 0xE0001000) -- Data:  01 00 00 40 00 00 00 00 00 00 00 00 00 00 00 00 ...  returns 0x00 (0001ms, 0335ms total)
T17BC 000:479 JLINK_Halt()  returns 0x00 (0000ms, 0335ms total)
T17BC 000:479 JLINK_IsHalted()  returns TRUE (0000ms, 0335ms total)
T17BC 000:485 JLINK_WriteMem(0x20000000, 0x0198 Bytes, ...) -- Data:  00 BE 0A E0 0D 78 2D 06 68 40 08 24 40 00 00 D3 ... -- CPU_WriteMem(408 bytes @ 0x20000000)  returns 0x198 (0003ms, 0338ms total)
T17BC 000:488 JLINK_WriteReg(R0, 0x08000000)  returns 0x00 (0000ms, 0338ms total)
T17BC 000:489 JLINK_WriteReg(R1, 0x0A037A00)  returns 0x00 (0000ms, 0338ms total)
T17BC 000:489 JLINK_WriteReg(R2, 0x00000001)  returns 0x00 (0000ms, 0338ms total)
T17BC 000:489 JLINK_WriteReg(R3, 0x00000000)  returns 0x00 (0000ms, 0338ms total)
T17BC 000:489 JLINK_WriteReg(R4, 0x00000000)  returns 0x00 (0000ms, 0338ms total)
T17BC 000:489 JLINK_WriteReg(R5, 0x00000000)  returns 0x00 (0000ms, 0338ms total)
T17BC 000:489 JLINK_WriteReg(R6, 0x00000000)  returns 0x00 (0000ms, 0338ms total)
T17BC 000:489 JLINK_WriteReg(R7, 0x00000000)  returns 0x00 (0000ms, 0338ms total)
T17BC 000:489 JLINK_WriteReg(R8, 0x00000000)  returns 0x00 (0000ms, 0338ms total)
T17BC 000:489 JLINK_WriteReg(R9, 0x20000194)  returns 0x00 (0000ms, 0338ms total)
T17BC 000:489 JLINK_WriteReg(R10, 0x00000000)  returns 0x00 (0000ms, 0338ms total)
T17BC 000:489 JLINK_WriteReg(R11, 0x00000000)  returns 0x00 (0000ms, 0338ms total)
T17BC 000:489 JLINK_WriteReg(R12, 0x00000000)  returns 0x00 (0000ms, 0338ms total)
T17BC 000:489 JLINK_WriteReg(R13 (SP), 0x20001000)  returns 0x00 (0000ms, 0338ms total)
T17BC 000:489 JLINK_WriteReg(R14, 0x20000001)  returns 0x00 (0000ms, 0338ms total)
T17BC 000:489 JLINK_WriteReg(R15 (PC), 0x2000005E)  returns 0x00 (0000ms, 0338ms total)
T17BC 000:489 JLINK_WriteReg(XPSR, 0x01000000)  returns 0x00 (0000ms, 0338ms total)
T17BC 000:489 JLINK_WriteReg(MSP, 0x20001000)  returns 0x00 (0000ms, 0338ms total)
T17BC 000:489 JLINK_WriteReg(PSP, 0x20001000)  returns 0x00 (0000ms, 0338ms total)
T17BC 000:489 JLINK_WriteReg(CFBP, 0x00000000)  returns 0x00 (0000ms, 0338ms total)
T17BC 000:489 JLINK_SetBPEx(Addr = 0x20000000, Type = 0xFFFFFFF2) -- CPU_ReadMem(4 bytes @ 0x20000000) -- CPU_WriteMem(4 bytes @ 0x20000000) -- CPU_ReadMem(4 bytes @ 0x20000000) -- CPU_WriteMem(4 bytes @ 0x20000000) -- CPU_ReadMem(2 bytes @ 0x20000000)  returns 0x00000001 (0006ms, 0344ms total)
T17BC 000:495 JLINK_Go() -- CPU_WriteMem(2 bytes @ 0x20000000) -- CPU_WriteMem(4 bytes @ 0xE0002008) -- CPU_WriteMem(4 bytes @ 0xE000200C) -- CPU_WriteMem(4 bytes @ 0xE0002010) -- CPU_WriteMem(4 bytes @ 0xE0002014) -- CPU_WriteMem(4 bytes @ 0xE0002018) -- CPU_WriteMem(4 bytes @ 0xE000201C) (0010ms, 0354ms total)
T17BC 000:505 JLINK_IsHalted() -- CPU_ReadMem(2 bytes @ 0x20000000)  returns TRUE (0004ms, 0358ms total)
T17BC 000:509 JLINK_ReadReg(R15 (PC))  returns 0x20000000 (0000ms, 0354ms total)
T17BC 000:509 JLINK_ClrBPEx(BPHandle = 0x00000001)  returns 0x00 (0001ms, 0355ms total)
T17BC 000:510 JLINK_ReadReg(R0)  returns 0x00000000 (0000ms, 0355ms total)
T17BC 000:510 JLINK_WriteReg(R0, 0x08000000)  returns 0x00 (0000ms, 0355ms total)
T17BC 000:510 JLINK_WriteReg(R1, 0x00004000)  returns 0x00 (0000ms, 0355ms total)
T17BC 000:511 JLINK_WriteReg(R2, 0x000000FF)  returns 0x00 (0000ms, 0356ms total)
T17BC 000:511 JLINK_WriteReg(R3, 0x00000000)  returns 0x00 (0000ms, 0356ms total)
T17BC 000:511 JLINK_WriteReg(R4, 0x00000000)  returns 0x00 (0000ms, 0356ms total)
T17BC 000:511 JLINK_WriteReg(R5, 0x00000000)  returns 0x00 (0000ms, 0356ms total)
T17BC 000:511 JLINK_WriteReg(R6, 0x00000000)  returns 0x00 (0000ms, 0356ms total)
T17BC 000:511 JLINK_WriteReg(R7, 0x00000000)  returns 0x00 (0000ms, 0356ms total)
T17BC 000:511 JLINK_WriteReg(R8, 0x00000000)  returns 0x00 (0000ms, 0356ms total)
T17BC 000:511 JLINK_WriteReg(R9, 0x20000194)  returns 0x00 (0000ms, 0356ms total)
T17BC 000:511 JLINK_WriteReg(R10, 0x00000000)  returns 0x00 (0000ms, 0356ms total)
T17BC 000:511 JLINK_WriteReg(R11, 0x00000000)  returns 0x00 (0000ms, 0356ms total)
T17BC 000:511 JLINK_WriteReg(R12, 0x00000000)  returns 0x00 (0000ms, 0356ms total)
T17BC 000:511 JLINK_WriteReg(R13 (SP), 0x20001000)  returns 0x00 (0000ms, 0356ms total)
T17BC 000:511 JLINK_WriteReg(R14, 0x20000001)  returns 0x00 (0000ms, 0356ms total)
T17BC 000:511 JLINK_WriteReg(R15 (PC), 0x20000020)  returns 0x00 (0000ms, 0356ms total)
T17BC 000:511 JLINK_WriteReg(XPSR, 0x01000000)  returns 0x00 (0000ms, 0356ms total)
T17BC 000:511 JLINK_WriteReg(MSP, 0x20001000)  returns 0x00 (0000ms, 0356ms total)
T17BC 000:511 JLINK_WriteReg(PSP, 0x20001000)  returns 0x00 (0000ms, 0356ms total)
T17BC 000:511 JLINK_WriteReg(CFBP, 0x00000000)  returns 0x00 (0000ms, 0356ms total)
T17BC 000:511 JLINK_SetBPEx(Addr = 0x20000000, Type = 0xFFFFFFF2)  returns 0x00000002 (0000ms, 0356ms total)
T17BC 000:511 JLINK_Go() (0003ms, 0359ms total)
T17BC 000:514 JLINK_IsHalted() -- CPU_ReadMem(2 bytes @ 0x20000000)  returns TRUE (0004ms, 0363ms total)
T17BC 000:518 JLINK_ReadReg(R15 (PC))  returns 0x20000000 (0000ms, 0359ms total)
T17BC 000:518 JLINK_ClrBPEx(BPHandle = 0x00000002)  returns 0x00 (0000ms, 0359ms total)
T17BC 000:518 JLINK_ReadReg(R0)  returns 0x00000001 (0000ms, 0359ms total)
T17BC 000:518 JLINK_WriteReg(R0, 0x08000000)  returns 0x00 (0000ms, 0359ms total)
T17BC 000:518 JLINK_WriteReg(R1, 0x00004000)  returns 0x00 (0000ms, 0359ms total)
T17BC 000:518 JLINK_WriteReg(R2, 0x000000FF)  returns 0x00 (0001ms, 0360ms total)
T17BC 000:519 JLINK_WriteReg(R3, 0x00000000)  returns 0x00 (0000ms, 0360ms total)
T17BC 000:519 JLINK_WriteReg(R4, 0x00000000)  returns 0x00 (0000ms, 0360ms total)
T17BC 000:519 JLINK_WriteReg(R5, 0x00000000)  returns 0x00 (0000ms, 0360ms total)
T17BC 000:519 JLINK_WriteReg(R6, 0x00000000)  returns 0x00 (0000ms, 0360ms total)
T17BC 000:519 JLINK_WriteReg(R7, 0x00000000)  returns 0x00 (0000ms, 0360ms total)
T17BC 000:519 JLINK_WriteReg(R8, 0x00000000)  returns 0x00 (0000ms, 0360ms total)
T17BC 000:519 JLINK_WriteReg(R9, 0x20000194)  returns 0x00 (0000ms, 0360ms total)
T17BC 000:519 JLINK_WriteReg(R10, 0x00000000)  returns 0x00 (0000ms, 0360ms total)
T17BC 000:519 JLINK_WriteReg(R11, 0x00000000)  returns 0x00 (0000ms, 0360ms total)
T17BC 000:519 JLINK_WriteReg(R12, 0x00000000)  returns 0x00 (0000ms, 0360ms total)
T17BC 000:519 JLINK_WriteReg(R13 (SP), 0x20001000)  returns 0x00 (0000ms, 0360ms total)
T17BC 000:519 JLINK_WriteReg(R14, 0x20000001)  returns 0x00 (0000ms, 0360ms total)
T17BC 000:519 JLINK_WriteReg(R15 (PC), 0x200000D4)  returns 0x00 (0000ms, 0360ms total)
T17BC 000:519 JLINK_WriteReg(XPSR, 0x01000000)  returns 0x00 (0000ms, 0360ms total)
T17BC 000:519 JLINK_WriteReg(MSP, 0x20001000)  returns 0x00 (0000ms, 0360ms total)
T17BC 000:519 JLINK_WriteReg(PSP, 0x20001000)  returns 0x00 (0000ms, 0360ms total)
T17BC 000:519 JLINK_WriteReg(CFBP, 0x00000000)  returns 0x00 (0000ms, 0360ms total)
T17BC 000:519 JLINK_SetBPEx(Addr = 0x20000000, Type = 0xFFFFFFF2)  returns 0x00000003 (0000ms, 0360ms total)
T17BC 000:519 JLINK_Go() (0003ms, 0363ms total)
T17BC 000:522 JLINK_IsHalted()  returns FALSE (0001ms, 0364ms total)
T17BC 000:654 JLINK_IsHalted()  returns FALSE (0001ms, 0364ms total)
T17BC 000:656 JLINK_IsHalted()  returns FALSE (0001ms, 0364ms total)
T17BC 000:663 JLINK_IsHalted()  returns FALSE (0001ms, 0364ms total)
T17BC 000:665 JLINK_IsHalted()  returns FALSE (0001ms, 0364ms total)
T17BC 000:667 JLINK_IsHalted()  returns FALSE (0001ms, 0364ms total)
T17BC 000:669 JLINK_IsHalted()  returns FALSE (0001ms, 0364ms total)
T17BC 000:671 JLINK_IsHalted()  returns FALSE (0001ms, 0364ms total)
T17BC 000:683 JLINK_IsHalted()  returns FALSE (0001ms, 0364ms total)
T17BC 000:685 JLINK_IsHalted()  returns FALSE (0001ms, 0364ms total)
T17BC 000:687 JLINK_IsHalted()  returns FALSE (0001ms, 0364ms total)
T17BC 000:689 JLINK_IsHalted()  returns FALSE (0001ms, 0364ms total)
T17BC 000:691 JLINK_IsHalted()  returns FALSE (0001ms, 0364ms total)
T17BC 000:693 JLINK_IsHalted()  returns FALSE (0001ms, 0364ms total)
T17BC 000:695 JLINK_IsHalted()  returns FALSE (0001ms, 0364ms total)
T17BC 000:697 JLINK_IsHalted()  returns FALSE (0001ms, 0364ms total)
T17BC 000:699 JLINK_IsHalted()  returns FALSE (0001ms, 0364ms total)
T17BC 000:701 JLINK_IsHalted()  returns FALSE (0001ms, 0364ms total)
T17BC 000:703 JLINK_IsHalted()  returns FALSE (0001ms, 0364ms total)
T17BC 000:711 JLINK_IsHalted()  returns FALSE (0001ms, 0364ms total)
T17BC 000:713 JLINK_IsHalted()  returns FALSE (0001ms, 0364ms total)
T17BC 000:715 JLINK_IsHalted()  returns FALSE (0001ms, 0364ms total)
T17BC 000:717 JLINK_IsHalted()  returns FALSE (0001ms, 0364ms total)
T17BC 000:724 JLINK_IsHalted()  returns FALSE (0001ms, 0364ms total)
T17BC 000:726 JLINK_IsHalted()  returns FALSE (0001ms, 0364ms total)
T17BC 000:728 JLINK_IsHalted()  returns FALSE (0001ms, 0364ms total)
T17BC 000:730 JLINK_IsHalted()  returns FALSE (0001ms, 0364ms total)
T17BC 000:732 JLINK_IsHalted()  returns FALSE (0001ms, 0364ms total)
T17BC 000:734 JLINK_IsHalted()  returns FALSE (0001ms, 0364ms total)
T17BC 000:739 JLINK_IsHalted()  returns FALSE (0001ms, 0364ms total)
T17BC 000:741 JLINK_IsHalted()  returns FALSE (0001ms, 0364ms total)
T17BC 000:743 JLINK_IsHalted()  returns FALSE (0001ms, 0364ms total)
T17BC 000:745 JLINK_IsHalted()  returns FALSE (0001ms, 0364ms total)
T17BC 000:747 JLINK_IsHalted()  returns FALSE (0001ms, 0364ms total)
T17BC 000:749 JLINK_IsHalted()  returns FALSE (0001ms, 0364ms total)
T17BC 000:807 JLINK_IsHalted()  returns FALSE (0001ms, 0364ms total)
T17BC 000:809 JLINK_IsHalted()  returns FALSE (0000ms, 0363ms total)
T17BC 000:810 JLINK_IsHalted()  returns FALSE (0001ms, 0364ms total)
T17BC 000:812 JLINK_IsHalted()  returns FALSE (0001ms, 0364ms total)
T17BC 000:814 JLINK_IsHalted()  returns FALSE (0001ms, 0364ms total)
T17BC 000:857 JLINK_IsHalted()  returns FALSE (0001ms, 0364ms total)
T17BC 000:859 JLINK_IsHalted()  returns FALSE (0001ms, 0364ms total)
T17BC 000:911 JLINK_IsHalted() -- CPU_ReadMem(2 bytes @ 0x20000000)  returns TRUE (0004ms, 0367ms total)
T17BC 000:915 JLINK_ReadReg(R15 (PC))  returns 0x20000000 (0000ms, 0363ms total)
T17BC 000:915 JLINK_ClrBPEx(BPHandle = 0x00000003)  returns 0x00 (0000ms, 0363ms total)
T17BC 000:915 JLINK_ReadReg(R0)  returns 0x00000000 (0000ms, 0363ms total)
T17BC 000:916 JLINK_WriteReg(R0, 0x08004000)  returns 0x00 (0000ms, 0363ms total)
T17BC 000:916 JLINK_WriteReg(R1, 0x00004000)  returns 0x00 (0000ms, 0363ms total)
T17BC 000:916 JLINK_WriteReg(R2, 0x000000FF)  returns 0x00 (0000ms, 0363ms total)
T17BC 000:916 JLINK_WriteReg(R3, 0x00000000)  returns 0x00 (0000ms, 0363ms total)
T17BC 000:916 JLINK_WriteReg(R4, 0x00000000)  returns 0x00 (0000ms, 0363ms total)
T17BC 000:916 JLINK_WriteReg(R5, 0x00000000)  returns 0x00 (0000ms, 0363ms total)
T17BC 000:916 JLINK_WriteReg(R6, 0x00000000)  returns 0x00 (0000ms, 0363ms total)
T17BC 000:916 JLINK_WriteReg(R7, 0x00000000)  returns 0x00 (0000ms, 0363ms total)
T17BC 000:916 JLINK_WriteReg(R8, 0x00000000)  returns 0x00 (0000ms, 0363ms total)
T17BC 000:916 JLINK_WriteReg(R9, 0x20000194)  returns 0x00 (0000ms, 0363ms total)
T17BC 000:916 JLINK_WriteReg(R10, 0x00000000)  returns 0x00 (0000ms, 0363ms total)
T17BC 000:916 JLINK_WriteReg(R11, 0x00000000)  returns 0x00 (0000ms, 0363ms total)
T17BC 000:916 JLINK_WriteReg(R12, 0x00000000)  returns 0x00 (0000ms, 0363ms total)
T17BC 000:916 JLINK_WriteReg(R13 (SP), 0x20001000)  returns 0x00 (0000ms, 0363ms total)
T17BC 000:916 JLINK_WriteReg(R14, 0x20000001)  returns 0x00 (0000ms, 0363ms total)
T17BC 000:916 JLINK_WriteReg(R15 (PC), 0x20000020)  returns 0x00 (0000ms, 0363ms total)
T17BC 000:916 JLINK_WriteReg(XPSR, 0x01000000)  returns 0x00 (0000ms, 0363ms total)
T17BC 000:916 JLINK_WriteReg(MSP, 0x20001000)  returns 0x00 (0000ms, 0363ms total)
T17BC 000:916 JLINK_WriteReg(PSP, 0x20001000)  returns 0x00 (0000ms, 0363ms total)
T17BC 000:916 JLINK_WriteReg(CFBP, 0x00000000)  returns 0x00 (0000ms, 0363ms total)
T17BC 000:916 JLINK_SetBPEx(Addr = 0x20000000, Type = 0xFFFFFFF2)  returns 0x00000004 (0000ms, 0363ms total)
T17BC 000:916 JLINK_Go() (0002ms, 0365ms total)
T17BC 000:919 JLINK_IsHalted() -- CPU_ReadMem(2 bytes @ 0x20000000)  returns TRUE (0004ms, 0370ms total)
T17BC 000:923 JLINK_ReadReg(R15 (PC))  returns 0x20000000 (0000ms, 0366ms total)
T17BC 000:923 JLINK_ClrBPEx(BPHandle = 0x00000004)  returns 0x00 (0000ms, 0366ms total)
T17BC 000:923 JLINK_ReadReg(R0)  returns 0x00000001 (0000ms, 0366ms total)
T17BC 000:923 JLINK_WriteReg(R0, 0x08004000)  returns 0x00 (0000ms, 0366ms total)
T17BC 000:923 JLINK_WriteReg(R1, 0x00004000)  returns 0x00 (0000ms, 0366ms total)
T17BC 000:923 JLINK_WriteReg(R2, 0x000000FF)  returns 0x00 (0000ms, 0366ms total)
T17BC 000:923 JLINK_WriteReg(R3, 0x00000000)  returns 0x00 (0000ms, 0366ms total)
T17BC 000:923 JLINK_WriteReg(R4, 0x00000000)  returns 0x00 (0000ms, 0366ms total)
T17BC 000:923 JLINK_WriteReg(R5, 0x00000000)  returns 0x00 (0000ms, 0366ms total)
T17BC 000:923 JLINK_WriteReg(R6, 0x00000000)  returns 0x00 (0000ms, 0366ms total)
T17BC 000:923 JLINK_WriteReg(R7, 0x00000000)  returns 0x00 (0000ms, 0366ms total)
T17BC 000:923 JLINK_WriteReg(R8, 0x00000000)  returns 0x00 (0000ms, 0366ms total)
T17BC 000:923 JLINK_WriteReg(R9, 0x20000194)  returns 0x00 (0000ms, 0366ms total)
T17BC 000:923 JLINK_WriteReg(R10, 0x00000000)  returns 0x00 (0000ms, 0366ms total)
T17BC 000:923 JLINK_WriteReg(R11, 0x00000000)  returns 0x00 (0000ms, 0366ms total)
T17BC 000:923 JLINK_WriteReg(R12, 0x00000000)  returns 0x00 (0000ms, 0366ms total)
T17BC 000:923 JLINK_WriteReg(R13 (SP), 0x20001000)  returns 0x00 (0000ms, 0366ms total)
T17BC 000:923 JLINK_WriteReg(R14, 0x20000001)  returns 0x00 (0000ms, 0366ms total)
T17BC 000:923 JLINK_WriteReg(R15 (PC), 0x200000D4)  returns 0x00 (0000ms, 0366ms total)
T17BC 000:923 JLINK_WriteReg(XPSR, 0x01000000)  returns 0x00 (0000ms, 0366ms total)
T17BC 000:923 JLINK_WriteReg(MSP, 0x20001000)  returns 0x00 (0000ms, 0366ms total)
T17BC 000:923 JLINK_WriteReg(PSP, 0x20001000)  returns 0x00 (0000ms, 0366ms total)
T17BC 000:923 JLINK_WriteReg(CFBP, 0x00000000)  returns 0x00 (0000ms, 0366ms total)
T17BC 000:923 JLINK_SetBPEx(Addr = 0x20000000, Type = 0xFFFFFFF2)  returns 0x00000005 (0000ms, 0366ms total)
T17BC 000:923 JLINK_Go() (0002ms, 0368ms total)
T17BC 000:925 JLINK_IsHalted()  returns FALSE (0001ms, 0369ms total)
T17BC 000:935 JLINK_IsHalted()  returns FALSE (0001ms, 0369ms total)
T17BC 000:937 JLINK_IsHalted()  returns FALSE (0001ms, 0369ms total)
T17BC 000:946 JLINK_IsHalted()  returns FALSE (0001ms, 0369ms total)
T17BC 000:948 JLINK_IsHalted()  returns FALSE (0001ms, 0369ms total)
T17BC 000:950 JLINK_IsHalted()  returns FALSE (0001ms, 0369ms total)
T17BC 000:952 JLINK_IsHalted()  returns FALSE (0001ms, 0369ms total)
T17BC 000:964 JLINK_IsHalted()  returns FALSE (0001ms, 0369ms total)
T17BC 000:966 JLINK_IsHalted()  returns FALSE (0001ms, 0369ms total)
T17BC 000:968 JLINK_IsHalted()  returns FALSE (0001ms, 0369ms total)
T17BC 000:980 JLINK_IsHalted()  returns FALSE (0001ms, 0369ms total)
T17BC 000:982 JLINK_IsHalted()  returns FALSE (0001ms, 0369ms total)
T17BC 000:984 JLINK_IsHalted()  returns FALSE (0001ms, 0369ms total)
T17BC 000:986 JLINK_IsHalted()  returns FALSE (0001ms, 0369ms total)
T17BC 000:994 JLINK_IsHalted()  returns FALSE (0001ms, 0369ms total)
T17BC 000:996 JLINK_IsHalted()  returns FALSE (0001ms, 0369ms total)
T17BC 000:998 JLINK_IsHalted()  returns FALSE (0001ms, 0369ms total)
T17BC 001:000 JLINK_IsHalted()  returns FALSE (0000ms, 0368ms total)
T17BC 001:001 JLINK_IsHalted()  returns FALSE (0001ms, 0369ms total)
T17BC 001:003 JLINK_IsHalted()  returns FALSE (0001ms, 0369ms total)
T17BC 001:020 JLINK_IsHalted()  returns FALSE (0001ms, 0369ms total)
T17BC 001:022 JLINK_IsHalted()  returns FALSE (0001ms, 0369ms total)
T17BC 001:024 JLINK_IsHalted()  returns FALSE (0001ms, 0369ms total)
T17BC 001:026 JLINK_IsHalted()  returns FALSE (0001ms, 0369ms total)
T17BC 001:028 JLINK_IsHalted()  returns FALSE (0001ms, 0369ms total)
T17BC 001:030 JLINK_IsHalted()  returns FALSE (0001ms, 0369ms total)
T17BC 001:040 JLINK_IsHalted()  returns FALSE (0001ms, 0369ms total)
T17BC 001:042 JLINK_IsHalted()  returns FALSE (0001ms, 0369ms total)
T17BC 001:044 JLINK_IsHalted()  returns FALSE (0001ms, 0369ms total)
T17BC 001:054 JLINK_IsHalted()  returns FALSE (0001ms, 0369ms total)
T17BC 001:056 JLINK_IsHalted()  returns FALSE (0001ms, 0369ms total)
T17BC 001:058 JLINK_IsHalted()  returns FALSE (0001ms, 0369ms total)
T17BC 001:060 JLINK_IsHalted()  returns FALSE (0001ms, 0369ms total)
T17BC 001:062 JLINK_IsHalted()  returns FALSE (0001ms, 0369ms total)
T17BC 001:072 JLINK_IsHalted()  returns FALSE (0001ms, 0369ms total)
T17BC 001:074 JLINK_IsHalted()  returns FALSE (0001ms, 0369ms total)
T17BC 001:076 JLINK_IsHalted()  returns FALSE (0001ms, 0369ms total)
T17BC 001:078 JLINK_IsHalted()  returns FALSE (0001ms, 0369ms total)
T17BC 001:093 JLINK_IsHalted()  returns FALSE (0001ms, 0369ms total)
T17BC 001:100 JLINK_IsHalted()  returns FALSE (0001ms, 0369ms total)
T17BC 001:102 JLINK_IsHalted()  returns FALSE (0001ms, 0369ms total)
T17BC 001:104 JLINK_IsHalted()  returns FALSE (0001ms, 0369ms total)
T17BC 001:106 JLINK_IsHalted()  returns FALSE (0001ms, 0369ms total)
T17BC 001:108 JLINK_IsHalted()  returns FALSE (0001ms, 0369ms total)
T17BC 001:123 JLINK_IsHalted()  returns FALSE (0001ms, 0369ms total)
T17BC 001:125 JLINK_IsHalted()  returns FALSE (0001ms, 0369ms total)
T17BC 001:127 JLINK_IsHalted()  returns FALSE (0001ms, 0369ms total)
T17BC 001:129 JLINK_IsHalted()  returns FALSE (0001ms, 0369ms total)
T17BC 001:131 JLINK_IsHalted()  returns FALSE (0001ms, 0369ms total)
T17BC 001:133 JLINK_IsHalted()  returns FALSE (0001ms, 0369ms total)
T17BC 001:135 JLINK_IsHalted()  returns FALSE (0001ms, 0369ms total)
T17BC 001:137 JLINK_IsHalted()  returns FALSE (0001ms, 0369ms total)
T17BC 001:139 JLINK_IsHalted()  returns FALSE (0001ms, 0369ms total)
T17BC 001:154 JLINK_IsHalted()  returns FALSE (0002ms, 0370ms total)
T17BC 001:167 JLINK_IsHalted()  returns FALSE (0001ms, 0369ms total)
T17BC 001:169 JLINK_IsHalted()  returns FALSE (0001ms, 0369ms total)
T17BC 001:171 JLINK_IsHalted()  returns FALSE (0001ms, 0369ms total)
T17BC 001:177 JLINK_IsHalted()  returns FALSE (0001ms, 0369ms total)
T17BC 001:179 JLINK_IsHalted()  returns FALSE (0001ms, 0369ms total)
T17BC 001:181 JLINK_IsHalted()  returns FALSE (0001ms, 0369ms total)
T17BC 001:183 JLINK_IsHalted()  returns FALSE (0001ms, 0369ms total)
T17BC 001:185 JLINK_IsHalted()  returns FALSE (0001ms, 0369ms total)
T17BC 001:195 JLINK_IsHalted()  returns FALSE (0001ms, 0369ms total)
T17BC 001:197 JLINK_IsHalted()  returns FALSE (0001ms, 0369ms total)
T17BC 001:199 JLINK_IsHalted()  returns FALSE (0000ms, 0368ms total)
T17BC 001:200 JLINK_IsHalted()  returns FALSE (0000ms, 0368ms total)
T17BC 001:201 JLINK_IsHalted()  returns FALSE (0000ms, 0368ms total)
T17BC 001:202 JLINK_IsHalted()  returns FALSE (0000ms, 0368ms total)
T17BC 001:210 JLINK_IsHalted()  returns FALSE (0001ms, 0369ms total)
T17BC 001:212 JLINK_IsHalted()  returns FALSE (0001ms, 0369ms total)
T17BC 001:214 JLINK_IsHalted()  returns FALSE (0001ms, 0369ms total)
T17BC 001:216 JLINK_IsHalted()  returns FALSE (0001ms, 0369ms total)
T17BC 001:226 JLINK_IsHalted()  returns FALSE (0001ms, 0369ms total)
T17BC 001:228 JLINK_IsHalted()  returns FALSE (0001ms, 0369ms total)
T17BC 001:230 JLINK_IsHalted()  returns FALSE (0001ms, 0369ms total)
T17BC 001:232 JLINK_IsHalted()  returns FALSE (0001ms, 0369ms total)
T17BC 001:234 JLINK_IsHalted()  returns FALSE (0001ms, 0369ms total)
T17BC 001:236 JLINK_IsHalted()  returns FALSE (0001ms, 0369ms total)
T17BC 001:238 JLINK_IsHalted()  returns FALSE (0001ms, 0369ms total)
T17BC 001:240 JLINK_IsHalted()  returns FALSE (0001ms, 0369ms total)
T17BC 001:242 JLINK_IsHalted()  returns FALSE (0001ms, 0369ms total)
T17BC 001:244 JLINK_IsHalted()  returns FALSE (0001ms, 0369ms total)
T17BC 001:246 JLINK_IsHalted()  returns FALSE (0001ms, 0369ms total)
T17BC 001:248 JLINK_IsHalted()  returns FALSE (0001ms, 0369ms total)
T17BC 001:250 JLINK_IsHalted()  returns FALSE (0001ms, 0369ms total)
T17BC 001:252 JLINK_IsHalted()  returns FALSE (0001ms, 0369ms total)
T17BC 001:254 JLINK_IsHalted()  returns FALSE (0001ms, 0369ms total)
T17BC 001:261 JLINK_IsHalted()  returns FALSE (0001ms, 0369ms total)
T17BC 001:263 JLINK_IsHalted()  returns FALSE (0000ms, 0368ms total)
T17BC 001:264 JLINK_IsHalted()  returns FALSE (0000ms, 0368ms total)
T17BC 001:265 JLINK_IsHalted()  returns FALSE (0000ms, 0368ms total)
T17BC 001:266 JLINK_IsHalted()  returns FALSE (0000ms, 0368ms total)
T17BC 001:273 JLINK_IsHalted()  returns FALSE (0001ms, 0369ms total)
T17BC 001:275 JLINK_IsHalted()  returns FALSE (0001ms, 0369ms total)
T17BC 001:277 JLINK_IsHalted()  returns FALSE (0001ms, 0369ms total)
T17BC 001:279 JLINK_IsHalted()  returns FALSE (0001ms, 0369ms total)
T17BC 001:281 JLINK_IsHalted()  returns FALSE (0001ms, 0369ms total)
T17BC 001:286 JLINK_IsHalted()  returns FALSE (0001ms, 0369ms total)
T17BC 001:288 JLINK_IsHalted()  returns FALSE (0001ms, 0369ms total)
T17BC 001:290 JLINK_IsHalted()  returns FALSE (0001ms, 0369ms total)
T17BC 001:292 JLINK_IsHalted()  returns FALSE (0001ms, 0369ms total)
T17BC 001:294 JLINK_IsHalted()  returns FALSE (0001ms, 0369ms total)
T17BC 001:296 JLINK_IsHalted()  returns FALSE (0001ms, 0369ms total)
T17BC 001:298 JLINK_IsHalted()  returns FALSE (0001ms, 0369ms total)
T17BC 001:300 JLINK_IsHalted()  returns FALSE (0001ms, 0369ms total)
T17BC 001:308 JLINK_IsHalted() -- CPU_ReadMem(2 bytes @ 0x20000000)  returns TRUE (0004ms, 0372ms total)
T17BC 001:312 JLINK_ReadReg(R15 (PC))  returns 0x20000000 (0000ms, 0368ms total)
T17BC 001:312 JLINK_ClrBPEx(BPHandle = 0x00000005)  returns 0x00 (0000ms, 0368ms total)
T17BC 001:312 JLINK_ReadReg(R0)  returns 0x00000000 (0000ms, 0368ms total)
T17BC 001:313 JLINK_WriteReg(R0, 0x00000001)  returns 0x00 (0000ms, 0368ms total)
T17BC 001:313 JLINK_WriteReg(R1, 0x00004000)  returns 0x00 (0000ms, 0368ms total)
T17BC 001:313 JLINK_WriteReg(R2, 0x000000FF)  returns 0x00 (0000ms, 0368ms total)
T17BC 001:313 JLINK_WriteReg(R3, 0x00000000)  returns 0x00 (0000ms, 0368ms total)
T17BC 001:313 JLINK_WriteReg(R4, 0x00000000)  returns 0x00 (0000ms, 0368ms total)
T17BC 001:313 JLINK_WriteReg(R5, 0x00000000)  returns 0x00 (0000ms, 0368ms total)
T17BC 001:313 JLINK_WriteReg(R6, 0x00000000)  returns 0x00 (0000ms, 0368ms total)
T17BC 001:313 JLINK_WriteReg(R7, 0x00000000)  returns 0x00 (0000ms, 0368ms total)
T17BC 001:313 JLINK_WriteReg(R8, 0x00000000)  returns 0x00 (0000ms, 0368ms total)
T17BC 001:313 JLINK_WriteReg(R9, 0x20000194)  returns 0x00 (0000ms, 0368ms total)
T17BC 001:313 JLINK_WriteReg(R10, 0x00000000)  returns 0x00 (0000ms, 0368ms total)
T17BC 001:313 JLINK_WriteReg(R11, 0x00000000)  returns 0x00 (0000ms, 0368ms total)
T17BC 001:313 JLINK_WriteReg(R12, 0x00000000)  returns 0x00 (0000ms, 0368ms total)
T17BC 001:313 JLINK_WriteReg(R13 (SP), 0x20001000)  returns 0x00 (0000ms, 0368ms total)
T17BC 001:313 JLINK_WriteReg(R14, 0x20000001)  returns 0x00 (0000ms, 0368ms total)
T17BC 001:313 JLINK_WriteReg(R15 (PC), 0x2000008C)  returns 0x00 (0000ms, 0368ms total)
T17BC 001:313 JLINK_WriteReg(XPSR, 0x01000000)  returns 0x00 (0000ms, 0368ms total)
T17BC 001:313 JLINK_WriteReg(MSP, 0x20001000)  returns 0x00 (0000ms, 0368ms total)
T17BC 001:313 JLINK_WriteReg(PSP, 0x20001000)  returns 0x00 (0000ms, 0368ms total)
T17BC 001:313 JLINK_WriteReg(CFBP, 0x00000000)  returns 0x00 (0000ms, 0368ms total)
T17BC 001:313 JLINK_SetBPEx(Addr = 0x20000000, Type = 0xFFFFFFF2)  returns 0x00000006 (0000ms, 0368ms total)
T17BC 001:313 JLINK_Go() (0002ms, 0370ms total)
T17BC 001:315 JLINK_IsHalted() -- CPU_ReadMem(2 bytes @ 0x20000000)  returns TRUE (0005ms, 0375ms total)
T17BC 001:320 JLINK_ReadReg(R15 (PC))  returns 0x20000000 (0000ms, 0370ms total)
T17BC 001:320 JLINK_ClrBPEx(BPHandle = 0x00000006)  returns 0x00 (0000ms, 0370ms total)
T17BC 001:320 JLINK_ReadReg(R0)  returns 0x00000000 (0000ms, 0370ms total)
T17BC 001:382 JLINK_WriteMem(0x20000000, 0x0198 Bytes, ...) -- Data:  00 BE 0A E0 0D 78 2D 06 68 40 08 24 40 00 00 D3 ... -- CPU_WriteMem(408 bytes @ 0x20000000)  returns 0x198 (0003ms, 0373ms total)
T17BC 001:386 JLINK_WriteReg(R0, 0x08000000)  returns 0x00 (0000ms, 0373ms total)
T17BC 001:386 JLINK_WriteReg(R1, 0x0A037A00)  returns 0x00 (0000ms, 0373ms total)
T17BC 001:386 JLINK_WriteReg(R2, 0x00000002)  returns 0x00 (0000ms, 0373ms total)
T17BC 001:386 JLINK_WriteReg(R3, 0x00000000)  returns 0x00 (0000ms, 0373ms total)
T17BC 001:386 JLINK_WriteReg(R4, 0x00000000)  returns 0x00 (0000ms, 0373ms total)
T17BC 001:386 JLINK_WriteReg(R5, 0x00000000)  returns 0x00 (0000ms, 0373ms total)
T17BC 001:386 JLINK_WriteReg(R6, 0x00000000)  returns 0x00 (0000ms, 0373ms total)
T17BC 001:386 JLINK_WriteReg(R7, 0x00000000)  returns 0x00 (0000ms, 0373ms total)
T17BC 001:386 JLINK_WriteReg(R8, 0x00000000)  returns 0x00 (0000ms, 0373ms total)
T17BC 001:386 JLINK_WriteReg(R9, 0x20000194)  returns 0x00 (0000ms, 0373ms total)
T17BC 001:386 JLINK_WriteReg(R10, 0x00000000)  returns 0x00 (0000ms, 0373ms total)
T17BC 001:386 JLINK_WriteReg(R11, 0x00000000)  returns 0x00 (0000ms, 0373ms total)
T17BC 001:386 JLINK_WriteReg(R12, 0x00000000)  returns 0x00 (0000ms, 0373ms total)
T17BC 001:386 JLINK_WriteReg(R13 (SP), 0x20001000)  returns 0x00 (0000ms, 0373ms total)
T17BC 001:386 JLINK_WriteReg(R14, 0x20000001)  returns 0x00 (0000ms, 0373ms total)
T17BC 001:386 JLINK_WriteReg(R15 (PC), 0x2000005E)  returns 0x00 (0000ms, 0373ms total)
T17BC 001:386 JLINK_WriteReg(XPSR, 0x01000000)  returns 0x00 (0000ms, 0373ms total)
T17BC 001:386 JLINK_WriteReg(MSP, 0x20001000)  returns 0x00 (0001ms, 0374ms total)
T17BC 001:387 JLINK_WriteReg(PSP, 0x20001000)  returns 0x00 (0000ms, 0374ms total)
T17BC 001:387 JLINK_WriteReg(CFBP, 0x00000000)  returns 0x00 (0000ms, 0374ms total)
T17BC 001:387 JLINK_SetBPEx(Addr = 0x20000000, Type = 0xFFFFFFF2) -- CPU_ReadMem(4 bytes @ 0x20000000) -- CPU_WriteMem(4 bytes @ 0x20000000) -- CPU_ReadMem(4 bytes @ 0x20000000) -- CPU_WriteMem(4 bytes @ 0x20000000) -- CPU_ReadMem(2 bytes @ 0x20000000)  returns 0x00000007 (0005ms, 0379ms total)
T17BC 001:392 JLINK_Go() -- CPU_WriteMem(2 bytes @ 0x20000000) (0003ms, 0382ms total)
T17BC 001:395 JLINK_IsHalted() -- CPU_ReadMem(2 bytes @ 0x20000000)  returns TRUE (0004ms, 0386ms total)
T17BC 001:400 JLINK_ReadReg(R15 (PC))  returns 0x20000000 (0000ms, 0382ms total)
T17BC 001:400 JLINK_ClrBPEx(BPHandle = 0x00000007)  returns 0x00 (0000ms, 0382ms total)
T17BC 001:400 JLINK_ReadReg(R0)  returns 0x00000000 (0000ms, 0382ms total)
T17BC 001:401 JLINK_WriteMem(0x20000198, 0x0400 Bytes, ...) -- Data:  48 11 00 20 C1 01 00 08 DF 40 00 08 25 39 00 08 ... -- CPU_WriteMem(1024 bytes @ 0x20000198)  returns 0x400 (0007ms, 0389ms total)
T17BC 001:408 JLINK_WriteReg(R0, 0x08000000)  returns 0x00 (0000ms, 0389ms total)
T17BC 001:408 JLINK_WriteReg(R1, 0x00000400)  returns 0x00 (0000ms, 0389ms total)
T17BC 001:408 JLINK_WriteReg(R2, 0x20000198)  returns 0x00 (0000ms, 0389ms total)
T17BC 001:408 JLINK_WriteReg(R3, 0x00000000)  returns 0x00 (0000ms, 0389ms total)
T17BC 001:408 JLINK_WriteReg(R4, 0x00000000)  returns 0x00 (0000ms, 0389ms total)
T17BC 001:408 JLINK_WriteReg(R5, 0x00000000)  returns 0x00 (0000ms, 0389ms total)
T17BC 001:408 JLINK_WriteReg(R6, 0x00000000)  returns 0x00 (0000ms, 0389ms total)
T17BC 001:408 JLINK_WriteReg(R7, 0x00000000)  returns 0x00 (0000ms, 0389ms total)
T17BC 001:408 JLINK_WriteReg(R8, 0x00000000)  returns 0x00 (0000ms, 0389ms total)
T17BC 001:408 JLINK_WriteReg(R9, 0x20000194)  returns 0x00 (0000ms, 0389ms total)
T17BC 001:408 JLINK_WriteReg(R10, 0x00000000)  returns 0x00 (0000ms, 0389ms total)
T17BC 001:408 JLINK_WriteReg(R11, 0x00000000)  returns 0x00 (0000ms, 0389ms total)
T17BC 001:408 JLINK_WriteReg(R12, 0x00000000)  returns 0x00 (0000ms, 0389ms total)
T17BC 001:408 JLINK_WriteReg(R13 (SP), 0x20001000)  returns 0x00 (0000ms, 0389ms total)
T17BC 001:408 JLINK_WriteReg(R14, 0x20000001)  returns 0x00 (0000ms, 0389ms total)
T17BC 001:408 JLINK_WriteReg(R15 (PC), 0x20000120)  returns 0x00 (0001ms, 0390ms total)
T17BC 001:409 JLINK_WriteReg(XPSR, 0x01000000)  returns 0x00 (0000ms, 0390ms total)
T17BC 001:409 JLINK_WriteReg(MSP, 0x20001000)  returns 0x00 (0000ms, 0390ms total)
T17BC 001:409 JLINK_WriteReg(PSP, 0x20001000)  returns 0x00 (0000ms, 0390ms total)
T17BC 001:409 JLINK_WriteReg(CFBP, 0x00000000)  returns 0x00 (0000ms, 0390ms total)
T17BC 001:409 JLINK_SetBPEx(Addr = 0x20000000, Type = 0xFFFFFFF2)  returns 0x00000008 (0000ms, 0390ms total)
T17BC 001:409 JLINK_Go() (0003ms, 0393ms total)
T17BC 001:412 JLINK_IsHalted()  returns FALSE (0001ms, 0394ms total)
T17BC 001:560 JLINK_IsHalted() -- CPU_ReadMem(2 bytes @ 0x20000000)  returns TRUE (0004ms, 0397ms total)
T17BC 001:564 JLINK_ReadReg(R15 (PC))  returns 0x20000000 (0000ms, 0393ms total)
T17BC 001:564 JLINK_ClrBPEx(BPHandle = 0x00000008)  returns 0x00 (0000ms, 0393ms total)
T17BC 001:564 JLINK_ReadReg(R0)  returns 0x00000000 (0000ms, 0393ms total)
T17BC 001:565 JLINK_WriteMem(0x20000198, 0x0400 Bytes, ...) -- Data:  01 2B 49 1E FB D2 70 47 00 22 F6 E7 10 B5 13 46 ... -- CPU_WriteMem(1024 bytes @ 0x20000198)  returns 0x400 (0007ms, 0400ms total)
T17BC 001:572 JLINK_WriteReg(R0, 0x08000400)  returns 0x00 (0000ms, 0400ms total)
T17BC 001:572 JLINK_WriteReg(R1, 0x00000400)  returns 0x00 (0000ms, 0400ms total)
T17BC 001:572 JLINK_WriteReg(R2, 0x20000198)  returns 0x00 (0000ms, 0400ms total)
T17BC 001:572 JLINK_WriteReg(R3, 0x00000000)  returns 0x00 (0000ms, 0400ms total)
T17BC 001:572 JLINK_WriteReg(R4, 0x00000000)  returns 0x00 (0000ms, 0400ms total)
T17BC 001:572 JLINK_WriteReg(R5, 0x00000000)  returns 0x00 (0000ms, 0400ms total)
T17BC 001:572 JLINK_WriteReg(R6, 0x00000000)  returns 0x00 (0000ms, 0400ms total)
T17BC 001:572 JLINK_WriteReg(R7, 0x00000000)  returns 0x00 (0000ms, 0400ms total)
T17BC 001:572 JLINK_WriteReg(R8, 0x00000000)  returns 0x00 (0000ms, 0400ms total)
T17BC 001:572 JLINK_WriteReg(R9, 0x20000194)  returns 0x00 (0000ms, 0400ms total)
T17BC 001:572 JLINK_WriteReg(R10, 0x00000000)  returns 0x00 (0000ms, 0400ms total)
T17BC 001:572 JLINK_WriteReg(R11, 0x00000000)  returns 0x00 (0000ms, 0400ms total)
T17BC 001:572 JLINK_WriteReg(R12, 0x00000000)  returns 0x00 (0000ms, 0400ms total)
T17BC 001:572 JLINK_WriteReg(R13 (SP), 0x20001000)  returns 0x00 (0000ms, 0400ms total)
T17BC 001:572 JLINK_WriteReg(R14, 0x20000001)  returns 0x00 (0000ms, 0400ms total)
T17BC 001:572 JLINK_WriteReg(R15 (PC), 0x20000120)  returns 0x00 (0000ms, 0400ms total)
T17BC 001:572 JLINK_WriteReg(XPSR, 0x01000000)  returns 0x00 (0000ms, 0400ms total)
T17BC 001:572 JLINK_WriteReg(MSP, 0x20001000)  returns 0x00 (0000ms, 0400ms total)
T17BC 001:572 JLINK_WriteReg(PSP, 0x20001000)  returns 0x00 (0000ms, 0400ms total)
T17BC 001:572 JLINK_WriteReg(CFBP, 0x00000000)  returns 0x00 (0000ms, 0400ms total)
T17BC 001:572 JLINK_SetBPEx(Addr = 0x20000000, Type = 0xFFFFFFF2)  returns 0x00000009 (0000ms, 0400ms total)
T17BC 001:572 JLINK_Go() (0003ms, 0403ms total)
T17BC 001:575 JLINK_IsHalted()  returns FALSE (0001ms, 0404ms total)
T17BC 001:585 JLINK_IsHalted() -- CPU_ReadMem(2 bytes @ 0x20000000)  returns TRUE (0004ms, 0407ms total)
T17BC 001:589 JLINK_ReadReg(R15 (PC))  returns 0x20000000 (0000ms, 0403ms total)
T17BC 001:589 JLINK_ClrBPEx(BPHandle = 0x00000009)  returns 0x00 (0000ms, 0403ms total)
T17BC 001:589 JLINK_ReadReg(R0)  returns 0x00000000 (0000ms, 0403ms total)
T17BC 001:590 JLINK_WriteMem(0x20000198, 0x0400 Bytes, ...) -- Data:  E0 73 06 E0 41 FA 02 F3 D0 40 C2 F1 20 02 91 40 ... -- CPU_WriteMem(1024 bytes @ 0x20000198)  returns 0x400 (0006ms, 0409ms total)
T17BC 001:596 JLINK_WriteReg(R0, 0x08000800)  returns 0x00 (0000ms, 0409ms total)
T17BC 001:596 JLINK_WriteReg(R1, 0x00000400)  returns 0x00 (0000ms, 0409ms total)
T17BC 001:596 JLINK_WriteReg(R2, 0x20000198)  returns 0x00 (0000ms, 0409ms total)
T17BC 001:596 JLINK_WriteReg(R3, 0x00000000)  returns 0x00 (0001ms, 0410ms total)
T17BC 001:597 JLINK_WriteReg(R4, 0x00000000)  returns 0x00 (0000ms, 0410ms total)
T17BC 001:597 JLINK_WriteReg(R5, 0x00000000)  returns 0x00 (0000ms, 0410ms total)
T17BC 001:597 JLINK_WriteReg(R6, 0x00000000)  returns 0x00 (0000ms, 0410ms total)
T17BC 001:597 JLINK_WriteReg(R7, 0x00000000)  returns 0x00 (0000ms, 0410ms total)
T17BC 001:597 JLINK_WriteReg(R8, 0x00000000)  returns 0x00 (0000ms, 0410ms total)
T17BC 001:597 JLINK_WriteReg(R9, 0x20000194)  returns 0x00 (0000ms, 0410ms total)
T17BC 001:597 JLINK_WriteReg(R10, 0x00000000)  returns 0x00 (0000ms, 0410ms total)
T17BC 001:597 JLINK_WriteReg(R11, 0x00000000)  returns 0x00 (0000ms, 0410ms total)
T17BC 001:597 JLINK_WriteReg(R12, 0x00000000)  returns 0x00 (0000ms, 0410ms total)
T17BC 001:597 JLINK_WriteReg(R13 (SP), 0x20001000)  returns 0x00 (0000ms, 0410ms total)
T17BC 001:597 JLINK_WriteReg(R14, 0x20000001)  returns 0x00 (0000ms, 0410ms total)
T17BC 001:597 JLINK_WriteReg(R15 (PC), 0x20000120)  returns 0x00 (0000ms, 0410ms total)
T17BC 001:597 JLINK_WriteReg(XPSR, 0x01000000)  returns 0x00 (0000ms, 0410ms total)
T17BC 001:597 JLINK_WriteReg(MSP, 0x20001000)  returns 0x00 (0000ms, 0410ms total)
T17BC 001:597 JLINK_WriteReg(PSP, 0x20001000)  returns 0x00 (0000ms, 0410ms total)
T17BC 001:597 JLINK_WriteReg(CFBP, 0x00000000)  returns 0x00 (0000ms, 0410ms total)
T17BC 001:597 JLINK_SetBPEx(Addr = 0x20000000, Type = 0xFFFFFFF2)  returns 0x0000000A (0000ms, 0410ms total)
T17BC 001:597 JLINK_Go() (0002ms, 0412ms total)
T17BC 001:599 JLINK_IsHalted()  returns FALSE (0001ms, 0413ms total)
T17BC 001:606 JLINK_IsHalted() -- CPU_ReadMem(2 bytes @ 0x20000000)  returns TRUE (0004ms, 0416ms total)
T17BC 001:610 JLINK_ReadReg(R15 (PC))  returns 0x20000000 (0000ms, 0412ms total)
T17BC 001:610 JLINK_ClrBPEx(BPHandle = 0x0000000A)  returns 0x00 (0000ms, 0412ms total)
T17BC 001:610 JLINK_ReadReg(R0)  returns 0x00000000 (0000ms, 0412ms total)
T17BC 001:611 JLINK_WriteMem(0x20000198, 0x0400 Bytes, ...) -- Data:  02 DA FF F7 EB FE 01 E0 FF F7 F3 FC 00 9A 0A B1 ... -- CPU_WriteMem(1024 bytes @ 0x20000198)  returns 0x400 (0006ms, 0418ms total)
T17BC 001:617 JLINK_WriteReg(R0, 0x08000C00)  returns 0x00 (0000ms, 0418ms total)
T17BC 001:617 JLINK_WriteReg(R1, 0x00000400)  returns 0x00 (0000ms, 0418ms total)
T17BC 001:617 JLINK_WriteReg(R2, 0x20000198)  returns 0x00 (0000ms, 0418ms total)
T17BC 001:617 JLINK_WriteReg(R3, 0x00000000)  returns 0x00 (0000ms, 0418ms total)
T17BC 001:617 JLINK_WriteReg(R4, 0x00000000)  returns 0x00 (0000ms, 0418ms total)
T17BC 001:617 JLINK_WriteReg(R5, 0x00000000)  returns 0x00 (0000ms, 0418ms total)
T17BC 001:617 JLINK_WriteReg(R6, 0x00000000)  returns 0x00 (0000ms, 0418ms total)
T17BC 001:617 JLINK_WriteReg(R7, 0x00000000)  returns 0x00 (0000ms, 0418ms total)
T17BC 001:617 JLINK_WriteReg(R8, 0x00000000)  returns 0x00 (0000ms, 0418ms total)
T17BC 001:617 JLINK_WriteReg(R9, 0x20000194)  returns 0x00 (0000ms, 0418ms total)
T17BC 001:617 JLINK_WriteReg(R10, 0x00000000)  returns 0x00 (0000ms, 0418ms total)
T17BC 001:617 JLINK_WriteReg(R11, 0x00000000)  returns 0x00 (0000ms, 0418ms total)
T17BC 001:618 JLINK_WriteReg(R12, 0x00000000)  returns 0x00 (0000ms, 0418ms total)
T17BC 001:618 JLINK_WriteReg(R13 (SP), 0x20001000)  returns 0x00 (0000ms, 0418ms total)
T17BC 001:618 JLINK_WriteReg(R14, 0x20000001)  returns 0x00 (0000ms, 0418ms total)
T17BC 001:618 JLINK_WriteReg(R15 (PC), 0x20000120)  returns 0x00 (0000ms, 0418ms total)
T17BC 001:618 JLINK_WriteReg(XPSR, 0x01000000)  returns 0x00 (0000ms, 0418ms total)
T17BC 001:618 JLINK_WriteReg(MSP, 0x20001000)  returns 0x00 (0000ms, 0418ms total)
T17BC 001:618 JLINK_WriteReg(PSP, 0x20001000)  returns 0x00 (0000ms, 0418ms total)
T17BC 001:618 JLINK_WriteReg(CFBP, 0x00000000)  returns 0x00 (0000ms, 0418ms total)
T17BC 001:618 JLINK_SetBPEx(Addr = 0x20000000, Type = 0xFFFFFFF2)  returns 0x0000000B (0000ms, 0418ms total)
T17BC 001:618 JLINK_Go() (0002ms, 0420ms total)
T17BC 001:620 JLINK_IsHalted()  returns FALSE (0001ms, 0421ms total)
T17BC 001:626 JLINK_IsHalted() -- CPU_ReadMem(2 bytes @ 0x20000000)  returns TRUE (0004ms, 0424ms total)
T17BC 001:630 JLINK_ReadReg(R15 (PC))  returns 0x20000000 (0000ms, 0420ms total)
T17BC 001:630 JLINK_ClrBPEx(BPHandle = 0x0000000B)  returns 0x00 (0000ms, 0420ms total)
T17BC 001:630 JLINK_ReadReg(R0)  returns 0x00000000 (0000ms, 0420ms total)
T17BC 001:631 JLINK_WriteMem(0x20000198, 0x0400 Bytes, ...) -- Data:  64 0D 14 60 B0 E7 DA 60 02 68 53 69 23 F0 0A 03 ... -- CPU_WriteMem(1024 bytes @ 0x20000198)  returns 0x400 (0006ms, 0426ms total)
T17BC 001:637 JLINK_WriteReg(R0, 0x08001000)  returns 0x00 (0000ms, 0426ms total)
T17BC 001:637 JLINK_WriteReg(R1, 0x00000400)  returns 0x00 (0000ms, 0426ms total)
T17BC 001:637 JLINK_WriteReg(R2, 0x20000198)  returns 0x00 (0000ms, 0426ms total)
T17BC 001:637 JLINK_WriteReg(R3, 0x00000000)  returns 0x00 (0000ms, 0426ms total)
T17BC 001:637 JLINK_WriteReg(R4, 0x00000000)  returns 0x00 (0000ms, 0426ms total)
T17BC 001:637 JLINK_WriteReg(R5, 0x00000000)  returns 0x00 (0000ms, 0426ms total)
T17BC 001:637 JLINK_WriteReg(R6, 0x00000000)  returns 0x00 (0000ms, 0426ms total)
T17BC 001:637 JLINK_WriteReg(R7, 0x00000000)  returns 0x00 (0000ms, 0426ms total)
T17BC 001:637 JLINK_WriteReg(R8, 0x00000000)  returns 0x00 (0000ms, 0426ms total)
T17BC 001:637 JLINK_WriteReg(R9, 0x20000194)  returns 0x00 (0000ms, 0426ms total)
T17BC 001:637 JLINK_WriteReg(R10, 0x00000000)  returns 0x00 (0000ms, 0426ms total)
T17BC 001:638 JLINK_WriteReg(R11, 0x00000000)  returns 0x00 (0000ms, 0427ms total)
T17BC 001:638 JLINK_WriteReg(R12, 0x00000000)  returns 0x00 (0000ms, 0427ms total)
T17BC 001:638 JLINK_WriteReg(R13 (SP), 0x20001000)  returns 0x00 (0000ms, 0427ms total)
T17BC 001:638 JLINK_WriteReg(R14, 0x20000001)  returns 0x00 (0000ms, 0427ms total)
T17BC 001:638 JLINK_WriteReg(R15 (PC), 0x20000120)  returns 0x00 (0000ms, 0427ms total)
T17BC 001:638 JLINK_WriteReg(XPSR, 0x01000000)  returns 0x00 (0000ms, 0427ms total)
T17BC 001:638 JLINK_WriteReg(MSP, 0x20001000)  returns 0x00 (0000ms, 0427ms total)
T17BC 001:638 JLINK_WriteReg(PSP, 0x20001000)  returns 0x00 (0000ms, 0427ms total)
T17BC 001:638 JLINK_WriteReg(CFBP, 0x00000000)  returns 0x00 (0000ms, 0427ms total)
T17BC 001:638 JLINK_SetBPEx(Addr = 0x20000000, Type = 0xFFFFFFF2)  returns 0x0000000C (0000ms, 0427ms total)
T17BC 001:638 JLINK_Go() (0002ms, 0429ms total)
T17BC 001:640 JLINK_IsHalted()  returns FALSE (0001ms, 0430ms total)
T17BC 001:653 JLINK_IsHalted() -- CPU_ReadMem(2 bytes @ 0x20000000)  returns TRUE (0004ms, 0433ms total)
T17BC 001:657 JLINK_ReadReg(R15 (PC))  returns 0x20000000 (0000ms, 0429ms total)
T17BC 001:657 JLINK_ClrBPEx(BPHandle = 0x0000000C)  returns 0x00 (0000ms, 0429ms total)
T17BC 001:657 JLINK_ReadReg(R0)  returns 0x00000000 (0000ms, 0429ms total)
T17BC 001:658 JLINK_WriteMem(0x20000198, 0x0400 Bytes, ...) -- Data:  88 82 10 BD 34 04 00 20 44 04 00 20 28 00 00 20 ... -- CPU_WriteMem(1024 bytes @ 0x20000198)  returns 0x400 (0006ms, 0435ms total)
T17BC 001:664 JLINK_WriteReg(R0, 0x08001400)  returns 0x00 (0000ms, 0435ms total)
T17BC 001:664 JLINK_WriteReg(R1, 0x00000400)  returns 0x00 (0000ms, 0435ms total)
T17BC 001:664 JLINK_WriteReg(R2, 0x20000198)  returns 0x00 (0000ms, 0435ms total)
T17BC 001:664 JLINK_WriteReg(R3, 0x00000000)  returns 0x00 (0000ms, 0435ms total)
T17BC 001:664 JLINK_WriteReg(R4, 0x00000000)  returns 0x00 (0001ms, 0436ms total)
T17BC 001:665 JLINK_WriteReg(R5, 0x00000000)  returns 0x00 (0000ms, 0436ms total)
T17BC 001:665 JLINK_WriteReg(R6, 0x00000000)  returns 0x00 (0000ms, 0436ms total)
T17BC 001:665 JLINK_WriteReg(R7, 0x00000000)  returns 0x00 (0000ms, 0436ms total)
T17BC 001:665 JLINK_WriteReg(R8, 0x00000000)  returns 0x00 (0000ms, 0436ms total)
T17BC 001:665 JLINK_WriteReg(R9, 0x20000194)  returns 0x00 (0000ms, 0436ms total)
T17BC 001:665 JLINK_WriteReg(R10, 0x00000000)  returns 0x00 (0000ms, 0436ms total)
T17BC 001:665 JLINK_WriteReg(R11, 0x00000000)  returns 0x00 (0000ms, 0436ms total)
T17BC 001:665 JLINK_WriteReg(R12, 0x00000000)  returns 0x00 (0000ms, 0436ms total)
T17BC 001:665 JLINK_WriteReg(R13 (SP), 0x20001000)  returns 0x00 (0000ms, 0436ms total)
T17BC 001:665 JLINK_WriteReg(R14, 0x20000001)  returns 0x00 (0000ms, 0436ms total)
T17BC 001:665 JLINK_WriteReg(R15 (PC), 0x20000120)  returns 0x00 (0000ms, 0436ms total)
T17BC 001:665 JLINK_WriteReg(XPSR, 0x01000000)  returns 0x00 (0000ms, 0436ms total)
T17BC 001:665 JLINK_WriteReg(MSP, 0x20001000)  returns 0x00 (0000ms, 0436ms total)
T17BC 001:665 JLINK_WriteReg(PSP, 0x20001000)  returns 0x00 (0000ms, 0436ms total)
T17BC 001:665 JLINK_WriteReg(CFBP, 0x00000000)  returns 0x00 (0000ms, 0436ms total)
T17BC 001:665 JLINK_SetBPEx(Addr = 0x20000000, Type = 0xFFFFFFF2)  returns 0x0000000D (0000ms, 0436ms total)
T17BC 001:665 JLINK_Go() (0002ms, 0438ms total)
T17BC 001:667 JLINK_IsHalted()  returns FALSE (0001ms, 0439ms total)
T17BC 001:678 JLINK_IsHalted() -- CPU_ReadMem(2 bytes @ 0x20000000)  returns TRUE (0004ms, 0442ms total)
T17BC 001:682 JLINK_ReadReg(R15 (PC))  returns 0x20000000 (0000ms, 0438ms total)
T17BC 001:682 JLINK_ClrBPEx(BPHandle = 0x0000000D)  returns 0x00 (0000ms, 0438ms total)
